!Created with skrf (http://scikit-rf.org).
# GHz S RI R 376.73031366686166 
!freq ReS11 ImS11 ReS21 ImS21 ReS12 ImS12 ReS22 ImS22
1.0 -0.3779676272921641 -0.13530114991013875 -0.33698464144295964 0.2515223576590539 -0.3310812304591619 0.24711635391001996 -0.7428321000758811 0.07163735404785194
1.009 -0.39354663919599603 -0.13419896679846124 -0.3244326557153745 0.3068987631105411 -0.31173906676566815 0.294891233993196 -0.7343597471586483 0.12299919606650173
1.018 -0.41917396376376 -0.12893358870552596 -0.2797247030639548 0.33754621525946377 -0.2677562398829961 0.3231032857431327 -0.6903085572260197 0.16616620809807175
1.027 -0.4559392319229613 -0.11872675993798908 -0.24425028852285643 0.38607421979085854 -0.23491402526317018 0.3713171908701033 -0.6626000742226736 0.20953732735191707
1.036 -0.49191732187582177 -0.09907374892221014 -0.18827637699300154 0.4133168859075342 -0.1885504694366233 0.4139179282916041 -0.597001810727405 0.23441416115727595
1.045 -0.5142982616972629 -0.06798765344421806 -0.13225880933011633 0.459359158811283 -0.13649889062663081 0.47408705469715673 -0.5250896294510645 0.24417122428300492
1.054 -0.5443966819684527 -0.02961709648932882 -0.06214467267610517 0.5084138955218795 -0.06169137831278013 0.5047041838305454 -0.46672200775557976 0.24302774419629103
1.063 -0.5293665249960292 0.01570402992437847 0.025639751655207925 0.5256791036830961 0.02495599539783303 0.5116469908502738 -0.3923213531192199 0.20920231060217637
1.072 -0.5179684867019407 0.06016197662072819 0.11697175077809507 0.501376091848574 0.12206836152892885 0.5232229994704519 -0.33044440411607157 0.1521105047655333
1.081 -0.4911048758995448 0.09746226780939894 0.22026495280460057 0.49812613499473823 0.21409257863626346 0.48416703693319746 -0.3082006793450135 0.08332002973669832
1.09 -0.42615325628022976 0.11343398054478333 0.31462298214139295 0.45476837102382506 0.31960713268407187 0.4619732575399716 -0.304338084123673 0.0013509114830850878
1.099 -0.3923223325692521 0.11972957726337437 0.3745060142355273 0.3707194197164377 0.37552758850904483 0.37173096533125016 -0.30352386119126745 -0.06873674207577543
1.108 -0.353950297960429 0.10642216438003724 0.4223184778961204 0.2909386471812696 0.43099863126041155 0.29691720463233756 -0.3646499196020759 -0.12858592858268317
1.117 -0.2949793789562633 0.07205528374239747 0.4403643952582437 0.2058191158220408 0.4610118521979626 0.2154690559926154 -0.4217250351871894 -0.16235783856248456
1.126 -0.2795273267384965 0.039594589564010074 0.46150343675024497 0.1343418739689488 0.45788728969304787 0.13328927813779082 -0.48627964076251456 -0.17577497675712767
1.135 -0.27803044466506 0.0036482460040892597 0.4418487004003943 0.06269964913479459 0.45249945785019413 0.06421101937808438 -0.5438322252859077 -0.16910549305477748
1.144 -0.2829953960334772 -0.032674192942724015 0.42957254571718173 0.0038398230029939094 0.4385935159189187 0.003920327561260336 -0.6055205816757753 -0.1508294484418234
1.153 -0.29647714180841533 -0.06640632049228518 0.42129355103949745 -0.048505686168586165 0.44194395209016213 -0.050883434211248454 -0.6219733898020242 -0.11389086878749943
1.162 -0.3195320043894427 -0.09678176445153071 0.40151339533701985 -0.0947505865059406 0.40597716454115945 -0.09580402209988306 -0.6790047637941965 -0.0786689984577308
1.171 -0.35750779051860765 -0.12555168993910013 0.3695760087855955 -0.1325755838053459 0.38804596115651424 -0.13920074420994252 -0.7222791098740159 -0.03468579094763616
1.18 -0.35042262641758315 -0.13047315036924473 0.3632586491265326 -0.17757272409461278 0.3874071600131495 -0.1893772279323006 -0.7193134616474186 0.01494079400500737
1.189 -0.40466042018228165 -0.15012324098055174 0.34839444201236464 -0.22060911548265802 0.3622629906595301 -0.22939119200028787 -0.7360345992848815 0.06733854936279961
1.198 -0.4168231372979989 -0.14646234353218673 0.33461241299742667 -0.26832026970836503 0.331258105528556 -0.26563008091280155 -0.7225246887300547 0.11957328710444341
1.207 -0.4550622445651214 -0.14412268115446564 0.3045578430364766 -0.3079912551091386 0.2928802576091237 -0.29618282298291687 -0.6893781683281379 0.1685585161265235
1.216 -0.5125014021192735 -0.13792559869282378 0.27597713731876033 -0.35654792019553 0.2621740159326572 -0.3387157394198344 -0.6552562215838115 0.21661867033276705
1.225 -0.5044082585025567 -0.10585355276321094 0.23092292596054814 -0.3948319700460764 0.22399468397215788 -0.3829850035106611 -0.6043968536489394 0.2574822110210737
1.234 -0.5536042118357994 -0.07722900286361585 0.18505211854767042 -0.4516559801679779 0.1792841343416572 -0.4375803299009975 -0.5488879909207128 0.29243007483640765
1.243 -0.5820706883131846 -0.033948921997566724 0.11743463025463906 -0.48982465508885414 0.11823862122993267 -0.49318092719755396 -0.4858922077720898 0.3160897719901931
1.252 -0.5932685741739141 0.019699601233337968 0.03505230260807449 -0.5228579282938474 0.03607823561403134 -0.5381636490473763 -0.4017949435418713 0.30957114019277027
1.261 -0.5752979028017843 0.076813057355873 -0.06268342668228373 -0.5361850974596711 -0.06383893892007238 -0.5460612415023279 -0.3002246639027966 0.2575749347966256
1.27 -0.5454807220606078 0.13001500140042183 -0.17348977829094203 -0.5372073667958831 -0.17273604934485362 -0.5348733323067388 -0.2263858360716248 0.18577710393144256
1.279 -0.46291748603397515 0.15658366445637342 -0.28709654982530536 -0.5061711561411721 -0.28251516186181036 -0.4980922504067714 -0.1926304015773261 0.10175165489725314
1.288 -0.4224075487449632 0.17566045774248296 -0.37290072982053274 -0.42523960020245083 -0.37847944494065605 -0.43160157743822053 -0.20306792452073477 0.008320898867804422
1.297 -0.36916847442554895 0.16462214679900766 -0.42788544300774495 -0.3278972380338532 -0.4348391958805763 -0.3332264467452508 -0.24050461613116014 -0.08048477287643258
1.306 -0.31298321500016385 0.1265058948279499 -0.47544543209256407 -0.241088002791601 -0.46648736900655174 -0.23654613634693514 -0.29264459756395045 -0.14059906297463598
1.315 -0.2637251695958251 0.07539510888650534 -0.49104829584576726 -0.15182186924074167 -0.47639712235754983 -0.1472922133593364 -0.3687113480072499 -0.17825498730613565
1.324 -0.2608828438795375 0.030687480310153836 -0.4869489157312763 -0.07146929317522768 -0.4739574462796486 -0.06956236317652037 -0.42759134611254246 -0.18285896764343815
1.333 -0.25939861560729 -0.014646173563140503 -0.4586794551552202 -0.002503652802770472 -0.474636200297681 -0.0025908950328479186 -0.5013465179612786 -0.1769727993261831
1.342 -0.26635817268088413 -0.05368415114811099 -0.42760392652927437 0.05294606273219868 -0.4400947608671018 0.05449249009094991 -0.5462436053131463 -0.15005646109634152
1.351 -0.29917431940242023 -0.09089499465751374 -0.42126296081162107 0.1042936614359399 -0.39812630532101473 0.09856540735890945 -0.5905300312089832 -0.11672858148887297
1.36 -0.3114207750662332 -0.11363421655429608 -0.3896375919775881 0.14464754034496863 -0.37462134531062585 0.13907327765917799 -0.619222606916795 -0.07601712512530609
1.369 -0.34413500997646546 -0.1350620768453746 -0.36508405951009537 0.18261254517310524 -0.37131586449826876 0.18572978594783 -0.6440487212308404 -0.03177699544728742
1.378 -0.39067368943031744 -0.15417353837846332 -0.3489683449297238 0.22360886924057846 -0.33948495361419423 0.21753255898303886 -0.6535543903041781 0.015603645191374502
1.387 -0.3993364141322133 -0.15085353502351562 -0.32075729142424647 0.25713165773860996 -0.32630730946637676 0.2615806240640618 -0.6603228536745674 0.06503325315347029
1.396 -0.45620530439646434 -0.15794739135212546 -0.2946426488063214 0.29355553036904125 -0.2982762013542539 0.29717542745531733 -0.6553562539537139 0.11560018858991329
1.405 -0.49112300336214404 -0.14865926153099523 -0.2571793206688764 0.3211156025158895 -0.2743414187156757 0.34254431588558526 -0.63138677066655 0.16405999539193422
1.414 -0.528164648705458 -0.13128580564866832 -0.22921409423088107 0.3682316791412801 -0.24220299776510593 0.38909798891006236 -0.5992831080791062 0.21067417788338264
1.423 -0.558552643663648 -0.10293364645179724 -0.18897707074796688 0.4130279017030196 -0.19274012418697217 0.4212518112764988 -0.5482301664646999 0.24927961988223507
1.432 -0.6097689222664069 -0.06683955790051363 -0.13445330605007733 0.45142232967948503 -0.14081770334034013 0.4727913314194366 -0.4901406335792714 0.2806245347196417
1.441 -0.609207845522286 -0.014606695711654858 -0.06870378031101458 0.5052304459063319 -0.06827192460411916 0.5020472048441174 -0.40304063635613374 0.28452183802271347
1.45 -0.6321201526331927 0.04615804285940066 0.019086377080687236 0.5305211004934781 0.019486639129060766 0.5416541268079438 -0.30900183908696094 0.2607129630535077
1.459 -0.5924896902905286 0.10698451074593607 0.1252969727611588 0.5490101969414197 0.12663918133077576 0.5548941087851661 -0.2083306973623541 0.19335273261399938
1.468 -0.5532247927617368 0.16298397347212798 0.24409976213253745 0.5353723310677109 0.24703440553813083 0.54180937122367 -0.16621382989458314 0.1280940575172069
1.477 -0.5077591137895432 0.20531508082701788 0.3568121372554028 0.47888448403210676 0.34912470724842576 0.4685668180738503 -0.1327627482394579 0.016859823362800716
1.486 -0.4113462887552277 0.20080582084481577 0.44573535550679527 0.3887476370930084 0.4224053581504451 0.3684003246092606 -0.15471500868119067 -0.09441570541606792
1.495 -0.35525602277397483 0.18254856337575734 0.48105857655101447 0.2703529427496597 0.4985941413996416 0.2802075186506876 -0.20532798247007236 -0.18047183472422837
1.504 -0.28875969727602374 0.13084641554781057 0.5152113989889471 0.17136095953521305 0.5078315318931519 0.16890639700194426 -0.293035620439294 -0.24609325666589332
1.513 -0.2669739674757701 0.08243439576684924 0.5221748604142702 0.07744364844341524 0.487654471145783 0.07232441901599969 -0.3563093588830979 -0.2549802158186958
1.522 -0.2447229514259108 0.03012417750413567 0.4784691172933866 -0.004671021043328986 0.4731914182512518 -0.004619420994285409 -0.4517331277890206 -0.26454734534413105
1.531 -0.26554374615013115 -0.01370481142278149 0.4662083118119615 -0.07135110342066053 0.4484467463135209 -0.06863284665692218 -0.5096358005909989 -0.23864266948687293
1.54 -0.28163102553041286 -0.052061979620175634 0.41678488186248247 -0.12064735227524077 0.4122817669265858 -0.11934441297299724 -0.5767210341370972 -0.2104335663763164
1.549 -0.2938063045934674 -0.07967956932172668 0.3819416411316179 -0.16250836977263658 0.3974053486933412 -0.16908802192297218 -0.588866773215157 -0.1607397381226239
1.558 -0.34224803672882753 -0.10878005453091315 0.33555719993068456 -0.19036405582833157 0.3457172722388461 -0.19612817061064866 -0.6220406179351384 -0.11791049396834646
1.567 -0.3784265907947674 -0.1266247739392101 0.32407622643257633 -0.23404500006145504 0.31998645500142714 -0.23109156095766448 -0.6407499164720973 -0.07178988925034352
1.576 -0.423417015358465 -0.13962107620576517 0.3065213618839007 -0.27585756935799527 0.2872512317371092 -0.25851575252604564 -0.6403608327206863 -0.02449856545811555
1.585 -0.4379433171300416 -0.1353597709871512 0.26165103191860206 -0.2919819241110206 0.2560679375298635 -0.28575145039546274 -0.6345664197865406 0.021313272321892014
1.594 -0.477411141805518 -0.13193399742814613 0.23655690449739417 -0.3304646270434763 0.22929653381760193 -0.3203220230042292 -0.6280081437311154 0.06590366577655384
1.603 -0.49081644803634644 -0.1147387743120002 0.2023910706657329 -0.36376752704177523 0.1994413030019413 -0.3584655330360432 -0.6009642201434544 0.10628180883691403
1.612 -0.539101910886401 -0.09837317227517542 0.1520169526186076 -0.37208747363847733 0.15994863209202315 -0.391501583666555 -0.5541928502780754 0.138353675243065
1.621 -0.5540557980834924 -0.06809440261066706 0.1119888483825308 -0.42197973166084624 0.10978263423927855 -0.41366414176796057 -0.5130726197554157 0.1652681528213694
1.63 -0.5804098512464048 -0.03198583700715798 0.053659297694511145 -0.444487732978738 0.054233479804062755 -0.44924393098136256 -0.45882581337213685 0.17864489863103483
1.639 -0.5921056210308956 0.012340112015969658 -0.015024034412640717 -0.47008265052931364 -0.014797299595396093 -0.4629881755053186 -0.3886014303518708 0.17016673363214027
1.648 -0.5938224520930786 0.06192044759121975 -0.09987745824710458 -0.49749477287220967 -0.09368750115166972 -0.46666023977500953 -0.3053606325554159 0.1330919988326854
1.657 -0.5771005640599695 0.11130895673396153 -0.1867300123496478 -0.46991798113305916 -0.18767632259258699 -0.47230153154891835 -0.2551787862076191 0.08224899143693515
1.666 -0.5354718548808246 0.15048625175591993 -0.2805363199671642 -0.4377047802976117 -0.2854602320374295 -0.445388397254185 -0.23105791653346033 0.008158241996145186
1.675 -0.47419091899152616 0.1696577416381153 -0.3784756987100302 -0.3913791678264744 -0.3422672549384519 -0.3539370090745007 -0.23269915877051559 -0.08444193690560337
1.684 -0.42907872945737113 0.1741695812683996 -0.4386715135076172 -0.301998255469637 -0.43534741171810853 -0.29970944756677903 -0.2596333296913413 -0.17119548995689937
1.693 -0.36604545590046156 0.14857859610042454 -0.4735228866415757 -0.20556452999596564 -0.47441650260916124 -0.20595222440343774 -0.30327009631651347 -0.2287279065900043
1.702 -0.324493482872331 0.11265845686394578 -0.4825631764763216 -0.11143949747826842 -0.48107366218514996 -0.11109531737512277 -0.39904501028166484 -0.2857833965110395
1.711 -0.33451328233092065 0.08023600940566575 -0.48639350187610036 -0.028032758903226766 -0.4844595207259476 -0.027921528952238726 -0.4548379493921811 -0.28491400359991575
1.72 -0.3159597625275476 0.0354474354703573 -0.4597455398015249 0.04533361084018941 -0.46315512084497146 0.045669695326839725 -0.5169205511141776 -0.2717726668078689
1.729 -0.32580450146617834 -0.0020669290766584503 -0.4170277047615901 0.10285464424289768 -0.42263038493156213 0.10423632247954231 -0.5878718648571033 -0.25218087730557553
1.738 -0.35084991778176544 -0.03456948162504054 -0.3713625538353311 0.14616300737429716 -0.3832619414041653 0.15084655364591765 -0.6151727601478478 -0.20907354048220203
1.747 -0.34495131862462763 -0.0552625351041927 -0.34888285901960153 0.1905914625465924 -0.3402657868214469 0.1858835964071542 -0.658394764342713 -0.17008605252922349
1.756 -0.38403105066766446 -0.0746999831623588 -0.32048011717817315 0.22837529112208704 -0.31833382490696893 0.22684535342059467 -0.6941774637275662 -0.12714336612355742
1.765 -0.417515695137193 -0.08635579170852241 -0.2831345250451021 0.2557073395973182 -0.2909970074435614 0.2628077149394937 -0.6992411862704258 -0.07895814033589532
1.774 -0.4446762984604128 -0.0899086843867184 -0.24292842034413223 0.27554770691936536 -0.2643446526320272 0.2998399077017544 -0.6865469246198762 -0.031847499584798544
1.783 -0.4668417175078932 -0.08612078864976762 -0.21406653018258878 0.3071461815896082 -0.21621472216826612 0.31022929659513704 -0.6738106958981279 0.01170226328702147
1.792 -0.4925207377400848 -0.07704315667950691 -0.18136872683732583 0.33780260699633274 -0.1800952816095668 0.335430539466894 -0.6567363615412625 0.05177560672497708
1.801 -0.502737069730454 -0.06025789794228379 -0.13979881790571963 0.35732091951457223 -0.13971397741849165 0.35710385443198517 -0.647361838471575 0.08923787843188372
1.81 -0.5241480855136068 -0.03981811744323269 -0.09808962320083289 0.38818569804272196 -0.0940028323910957 0.3720116091296433 -0.6004331792726829 0.11595896257430784
1.819 -0.5554995236627646 -0.014226217011198973 -0.046664189037542596 0.40471983535650485 -0.04690326214201923 0.40679588266132805 -0.5573336976699654 0.1345714809377495
1.828 -0.5430151700610043 0.016483294827831264 0.011293272403214876 0.4237980918152141 0.010947356451825483 0.4108272262935552 -0.5113869163848389 0.1412986822956132
1.837 -0.5532594664958351 0.05015201142387226 0.07474482117344625 0.4160203553543823 0.07448192200246465 0.41455560275954234 -0.4499969104238321 0.12869440792311687
1.846 -0.5514423875590009 0.08436885285599136 0.14888458856993397 0.42250957102601217 0.14287836619509997 0.4054660657331272 -0.3945551224246495 0.09981677186200857
1.855 -0.501198261781183 0.10694937640410115 0.22205918005113845 0.3981095244336857 0.21519000547953712 0.3857938170027934 -0.3645039394577586 0.058093110016254355
1.864 -0.4841622787119736 0.1284764163031535 0.2942178658465463 0.3597248485581221 0.28708928964415786 0.3510100471118365 -0.3500403605961293 0.0016230941109984596
1.873 -0.45522261226361105 0.13655915628252405 0.35965730868361306 0.30610771995990477 0.37088226181072387 0.31566149656970965 -0.3569594801658625 -0.06254421618304061
1.882 -0.4023710984327643 0.12378870506668915 0.39014449594584466 0.226355519118517 0.3877302338751295 0.2249556437817109 -0.36836233882243963 -0.11884296272592393
1.891 -0.41112969216261913 0.11604374693520438 0.41551548272622196 0.15205862163648365 0.4211438889152071 0.15411853542179027 -0.4033456099012006 -0.16259754417081296
1.9 -0.35245579576786207 0.07965194992697007 0.4359364301832934 0.08081268740174816 0.43814327773800826 0.08122172244967206 -0.4460684716250046 -0.18755515375746906
1.909 -0.36828229827237147 0.05535308362608643 0.4282167055367916 0.010601853763561684 0.41613566375090083 0.010302781333445832 -0.5254196119943354 -0.20794660283429753
1.918 -0.3483984021793916 0.024732817703599766 0.3920358825369858 -0.049052771365347664 0.40187085386909494 -0.0502831319855744 -0.5580864502347991 -0.19445992454810676
1.927 -0.37446402180334765 0.0005231248675031921 0.3701649948972608 -0.10045859030660344 0.3955266748985441 -0.10734126736716282 -0.6299502232714423 -0.18318523011165702
1.936 -0.3732265384951519 -0.019100599431322314 0.36313402234464814 -0.15269770322061235 0.3701325380149114 -0.15564091033033678 -0.6416911216456379 -0.1471993244466361
1.945 -0.3774105411094015 -0.032050642048181116 0.3192009993652812 -0.1849548334443816 0.33432391110876997 -0.19371775565965021 -0.6719458485290631 -0.11242362090900752
1.954 -0.42958036471883504 -0.0434863757781103 0.29732252374566687 -0.22508522233508377 0.2892429794094782 -0.21896844195687495 -0.691823356146384 -0.07317050344706098
1.963 -0.4362304939150793 -0.04479504271667918 0.2714575657070146 -0.2623069084259402 0.26827478036542235 -0.2592319725370776 -0.7249287212053198 -0.03265985509260024
1.972 -0.46241496386346986 -0.04250248055897609 0.2353905900465819 -0.28921551267960555 0.22071800321060037 -0.27118739507191103 -0.7060418880739329 0.010533199744585907
1.981 -0.4982169291705245 -0.035423477023214744 0.1997315239687676 -0.3164666205042684 0.19648751348945784 -0.3113255076730207 -0.6881143750051517 0.05113862173183128
1.99 -0.4903329515889834 -0.02055658243099218 0.1593216952020426 -0.3380374889049729 0.16114682181628548 -0.3419092072324854 -0.6729221332880942 0.08959948553426031
1.999 -0.5213561872064574 -0.0029378587466928024 0.11507758320005987 -0.3544751551759743 0.1163286093217982 -0.35832803421630716 -0.6577167174439438 0.12560750194473735
2.008 -0.5351739724009972 0.01967077739062706 0.07089736567567496 -0.38538027069007924 0.06813147256981142 -0.37034543082340904 -0.6248031638703091 0.15399356764563593
2.017 -0.5418176954658109 0.045639872467165325 0.016652689764228738 -0.38509952156772853 0.01743412206411429 -0.4031755144277067 -0.5700221730270032 0.16915418790213954
2.026 -0.5351976880539914 0.07248994818366887 -0.040895721749423894 -0.3948453572934302 -0.03980790447898543 -0.3843452114117756 -0.5440542763279612 0.18300100993135146
2.035 -0.5122032463164906 0.09641779709026536 -0.10987705745336367 -0.4168140347044986 -0.1031565169531507 -0.39131989463763706 -0.4829041366614784 0.17201483218963404
2.044 -0.48472959625328965 0.11590102671248613 -0.17358489933327684 -0.3886502357952657 -0.16235139372335522 -0.3634991684759221 -0.4376820257804393 0.15036367692461555
2.053 -0.4838949662670814 0.13675327748880078 -0.23271105798389188 -0.34847541913553426 -0.22880790590029923 -0.3426301341062885 -0.4044290060651187 0.11567315655142234
