!Created with skrf (http://scikit-rf.org).
# GHz S RI R 376.73031366686166 
!freq ReS11 ImS11 ReS21 ImS21 ReS12 ImS12 ReS22 ImS22
1.0 -0.03704511344815739 -0.1675554081934037 0.5440793077865173 -0.1678506711757393 0.5496885577123113 -0.16958137396294734 -0.6785317065953815 -0.007103741733896638
1.00225 -0.05150169446677693 -0.19320780869627666 0.5585572756401784 -0.19566329402653612 0.5353523552511494 -0.1875342301261966 -0.6861013449099913 0.001379347428721264
1.0045 -0.06655634171258382 -0.21232219343635392 0.532440667151613 -0.2093589654265847 0.5383645695841552 -0.2116879874654793 -0.6734310153319488 0.009775050939451864
1.00675 -0.07397977244872758 -0.2043581280611516 0.5140730276263202 -0.22486315858879274 0.5226000846150769 -0.22859232257178605 -0.6839073941671411 0.018490803323093465
1.009 -0.08855505981219859 -0.21471571298536932 0.5227072563134314 -0.2525421296016003 0.5299307542205602 -0.25603251095311086 -0.6734307872769437 0.026648639136977344
1.01125 -0.10335988004679134 -0.22227138874882982 0.5224420604901349 -0.277227510221342 0.4974293002090363 -0.26395438585884307 -0.6739350212571596 0.03511760208778146
1.0135 -0.11960672875058107 -0.2299623550684543 0.5020575710961751 -0.29127986864961636 0.49137112381705705 -0.2850801616332829 -0.6628248686967005 0.042847829718023624
1.01575 -0.1407818610734069 -0.24351115552446123 0.48405580390794545 -0.3059537292190269 0.47821865948302644 -0.3022638433574524 -0.6767775153126544 0.052225831290040936
1.018 -0.1558827784345451 -0.2437346996391719 0.4891226668529444 -0.33586591806282734 0.4864328024094946 -0.33401841489820594 -0.6676357056709835 0.059866001904216724
1.02025 -0.1584985525085061 -0.2248288651746377 0.46501661867095495 -0.3461658787668635 0.45534953281724677 -0.33896946396406313 -0.6712652166613984 0.06856319902460035
1.0225 -0.18776066717156503 -0.2422464934688409 0.465840740947915 -0.37537343513356536 0.45266870879358556 -0.3647600408515451 -0.6560695066044772 0.07516436526278943
1.02475 -0.20260953458480704 -0.23815772057738627 0.4350765953747165 -0.37912584664281956 0.4552283074759461 -0.39668674567859596 -0.638983146127939 0.08111086883180754
1.027 -0.22264600802893328 -0.2386350014059137 0.4226820771457609 -0.3981371236362045 0.4197855890340076 -0.39540836852972644 -0.6277149096215213 0.08739917026324577
1.02925 -0.24415129284745443 -0.2386194502007599 0.41772662906611474 -0.4253431022202948 0.41810531923590477 -0.42572863855471416 -0.6566419580901617 0.09944160167016061
1.0315 -0.2584386257210782 -0.23014105301753315 0.41196371989833175 -0.45371770605078804 0.40738985834991415 -0.44867956238837386 -0.6353298719665846 0.1038951074215695
1.03375 -0.272403866892266 -0.22066323271447102 0.39750229940941106 -0.47405236966558356 0.3904343295565906 -0.46562230160767504 -0.6114895692908959 0.10730373764469549
1.036 -0.29485258608242076 -0.21671459740848023 0.36722194789805895 -0.4750099885014373 0.35743799129560355 -0.4623543356820243 -0.6272005126303263 0.11745060343261376
1.03825 -0.3082618582379243 -0.20483056277221487 0.3468825737212179 -0.4878054072587821 0.3464192726092624 -0.48715355648565994 -0.6088721462292555 0.12106818578074054
1.0405 -0.31467202247152815 -0.18810574277127173 0.32834881938564237 -0.5035036462064894 0.330350511354152 -0.5065726539791087 -0.6053404907300444 0.1272292903169288
1.04275 -0.3388133833625672 -0.181041403585166 0.30393051161838114 -0.5101784449901248 0.3070808800938355 -0.5154672868380997 -0.6028650072985162 0.13337142406669142
1.045 -0.3728855089948065 -0.17660625467166707 0.2982159523123113 -0.5506529819433681 0.2879227916862599 -0.5316466440457606 -0.5875924703529102 0.1362882079475505
1.04725 -0.382897948316676 -0.15897015895128813 0.26430771046041707 -0.5401525884603519 0.26259470856099515 -0.536651425303251 -0.5693616690524587 0.13793564802822628
1.0495 -0.38623676529328477 -0.13850928470116108 0.25032090667099616 -0.5705848968700133 0.2436264573774045 -0.555324500555383 -0.5894708634449787 0.14861882216581765
1.05175 -0.4069877707090177 -0.1235488128475809 0.22377398539344684 -0.5745433961077323 0.22678080456297 -0.5822621330611495 -0.56043201649387 0.14652405694575094
1.054 -0.42135109550662986 -0.10522062091964045 0.20699993572907868 -0.6063083497395463 0.20583402152703914 -0.6028952336749908 -0.5606140893212214 0.15145626213051752
1.05625 -0.40363175329041984 -0.07942144959055225 0.17717199294936128 -0.6020456985923168 0.1797085474627953 -0.6106686357697411 -0.542595586802271 0.15093159952066323
1.0585 -0.4246924092548648 -0.06133408654401983 0.1546338770097535 -0.6237726477823273 0.15233144120131398 -0.6144847825845514 -0.5365389443843805 0.153108756264484
1.06075 -0.43961795396257636 -0.04062038972708506 0.12387162765119299 -0.612981193146754 0.1262734672483084 -0.6248635789642358 -0.5366835407264499 0.15652125533085384
1.063 -0.43483648669267105 -0.01758362562588636 0.09785361493567711 -0.6246960631441021 0.09941883357023006 -0.6346869625115907 -0.517174844668784 0.1535455519325937
1.06525 -0.43802584367583547 0.005143079549774616 0.07034217525263492 -0.631376193131209 0.07061267413745156 -0.6338051695310903 -0.5477820963098003 0.16487049492755237
1.0675 -0.44204289936199137 0.028475233520580318 0.04241780660582167 -0.6405935879363951 0.04200243688401679 -0.6343204004493563 -0.49079957772824256 0.14909012991895604
1.06975 -0.4535682184014728 0.05346907096519031 0.01370158458852729 -0.6559559656374508 0.013484140286427073 -0.6455571891211 -0.49757492615039123 0.15182472570050792
1.072 -0.44113525050472674 0.07607791910379087 -0.015530936532963774 -0.6274540413705875 -0.01630818202387968 -0.6588654441253134 -0.495881067873578 0.15120188290829248
1.07425 -0.44504526643835907 0.10168422940946421 -0.04506705808861078 -0.63580295556449 -0.046785981316030276 -0.6600443743250196 -0.47389661012830897 0.14358611069167942
1.0765 -0.426556370314645 0.1221348938679919 -0.07610672174391858 -0.646663039907231 -0.07558521781461557 -0.6422297992208018 -0.4563938520224337 0.13656362198000196
1.07875 -0.42584090478388553 0.1475241243320475 -0.10682564387995316 -0.645945021053265 -0.10274860324031351 -0.6212899035468956 -0.4830404401085163 0.1417685232800058
1.081 -0.4013858938829378 0.1642788707168276 -0.13608201433017886 -0.6354130228054548 -0.14055294288776768 -0.6562905884374227 -0.4555679369177723 0.1301553789208307
1.08325 -0.39390737230380096 0.18728129263953017 -0.16869348620067592 -0.6383273859487062 -0.1688100746229921 -0.6387654695042754 -0.4254428940190813 0.11732309961648414
1.0855 -0.3922464865910332 0.21401123555658286 -0.19712473144367867 -0.62386062956985 -0.1980726303872379 -0.6268619114626001 -0.4335900902543815 0.11431687513724265
1.08775 -0.36426248126991906 0.22604893227983497 -0.23046621625158834 -0.6236321618457816 -0.23240087882551116 -0.6288657811410687 -0.4322032975534731 0.10777130025960631
1.09 -0.3450715310334559 0.24200585818658582 -0.26186784455147305 -0.6156668324492948 -0.2560847166526333 -0.6020715617118104 -0.42903317718041484 0.09992890641489728
1.09225 -0.3280049367954353 0.2588258394102499 -0.28631715659286283 -0.5919287425115936 -0.28655591985876183 -0.5924227122142652 -0.41951705007477647 0.08996054646089721
1.0945 -0.3127685596782748 0.27692896033825826 -0.3248452783254478 -0.5959695529106487 -0.30894857575769663 -0.5668058939469793 -0.41892758316239825 0.08130142201598903
1.09675 -0.2967019502076229 0.29440238963926213 -0.350440438605876 -0.574543789735819 -0.3459102808789174 -0.5671160393424716 -0.4077690490721743 0.07014566110819964
1.099 -0.2575779407536772 0.2864701219151268 -0.3699525106541115 -0.5449162704555058 -0.3642792790502402 -0.5365588064871871 -0.418980442662524 0.0622423045232768
1.10125 -0.24990249914209164 0.3120230754881005 -0.4105940561425169 -0.5455054316279296 -0.3983958404802341 -0.5293003437097878 -0.4017066790385844 0.049803723489875995
1.1035 -0.21313025804495603 0.29968944265587566 -0.42439021319363124 -0.5100302782815976 -0.4308038664029248 -0.5177383633000855 -0.4014467264066662 0.03959876555190924
1.10575 -0.1930519324476663 0.3072129199544022 -0.4478038253204467 -0.4877215381099124 -0.4474983836172993 -0.48738970594099634 -0.39719061607121936 0.028957084938089888
1.108 -0.17003831732546945 0.3083915884721538 -0.4771025357626939 -0.4713791996457703 -0.4891103811280607 -0.48324318640818104 -0.408934039516511 0.019285429712261593
1.11025 -0.15279100334844897 0.3189180029811849 -0.5028822375710703 -0.45076376657811346 -0.5043933443430331 -0.45211833646984007 -0.40870228934176583 0.008901694796022592
1.1125 -0.13307716940375955 0.3240001180448113 -0.5238204510298216 -0.4256694811053867 -0.5170192259875315 -0.420141904046949 -0.4105394968623957 -0.0011786329822226404
1.11475 -0.10288063029448244 0.2976916388048784 -0.5224305832550942 -0.3842585930596552 -0.5515045833813818 -0.40564405558144273 -0.4062573237035757 -0.010752730990182926
1.117 -0.08549303501922029 0.30200904127068756 -0.5624854690379708 -0.37350657350434824 -0.5456085207248266 -0.36229946424196535 -0.4023915554903233 -0.019603432653712238
1.11925 -0.0663486356507237 0.29797428879306265 -0.565449054726489 -0.33774436794138946 -0.5645864824486081 -0.33722927487670007 -0.42307687316068787 -0.029353602286455567
1.1215 -0.0420304603832457 0.25647387006166994 -0.5826442026893526 -0.3115110897833746 -0.5804397008031661 -0.31033244722392217 -0.40803452431838627 -0.03601753123223812
1.12375 -0.025715168435714274 0.241946820755584 -0.6001919702147835 -0.2853834022175217 -0.59955124127508 -0.2850785341235138 -0.42764787273506677 -0.04500846672328973
1.126 -0.011845522971765143 0.239436162855029 -0.609678385253976 -0.2556502560447079 -0.6120194392515805 -0.25663147529641067 -0.42932666218060367 -0.05161738418460898
1.12825 0.0015963595856054516 0.22934537736237803 -0.5981208278426309 -0.21874795798113716 -0.6076176158990109 -0.2222211928676182 -0.4381503459390827 -0.05835123289790714
1.1305 0.01390384485049489 0.21921775151285194 -0.6162477989715968 -0.1937119721601575 -0.6223715667197587 -0.1956370093518231 -0.45598132910517125 -0.0657037388682424
1.13275 0.024107473144634566 0.20029267908270845 -0.6321448865986289 -0.16742341719337125 -0.6152939571881014 -0.1629606331631459 -0.4498636607716394 -0.06883869038150048
1.135 0.029122987107544473 0.16337151276342338 -0.6189179262562033 -0.13428706975564556 -0.6167452831627924 -0.13381578043973075 -0.4479019391764685 -0.07167317968378656
1.13725 0.03890697978061765 0.1636672084517752 -0.6450898698614022 -0.10995927783264174 -0.6306720356143478 -0.10750106608244027 -0.4776412087589785 -0.07889769825142146
1.1395 0.03994336508594392 0.1333777600222608 -0.6213579522943558 -0.07772028917405745 -0.6369176904071079 -0.07966575964499185 -0.49093058007135093 -0.08277505749618931
1.14175 0.04658589610075967 0.12779440411874293 -0.6376906483702796 -0.05142296630692326 -0.6358503110388508 -0.05127452283398663 -0.49294312363044696 -0.08400374866968256
1.144 0.04946090810593007 0.11386185616622989 -0.6342223728607612 -0.023432645845751495 -0.6283488969433559 -0.02321573920590677 -0.5049215643295074 -0.08619657702757041
1.14625 0.04692754365905421 0.09175478582070004 -0.6249735350799924 0.0038584278139752954 -0.6229742726854001 0.0038457672138920815 -0.5136581712345782 -0.08713081557873971
1.1485 0.043781725821315835 0.07296467945978172 -0.6045584331933117 0.029555685201836206 -0.6251630968932333 0.030562576107008407 -0.5104955334398101 -0.08539308672895153
1.15075 0.024626209350971488 0.03471523440615851 -0.6122331108942453 0.05592946525250429 -0.6130427535480242 0.0560032979443632 -0.5322178313049488 -0.08715980962672527
1.153 0.029229727409605697 0.033837463304828674 -0.6061860990131783 0.08106270508542164 -0.5973236195921464 0.07987726156680457 -0.5415414174951655 -0.08622085129899577
1.15525 0.026023295064455578 0.022437960738702925 -0.588464681643526 0.10366086153391194 -0.5977376354980752 0.1052949717267772 -0.5334967575348079 -0.08200715176933733
1.1575 0.007241718649212738 0.0025363632295729165 -0.5873398948180465 0.1285068011216165 -0.579194974826136 0.12672504570938584 -0.5298375160194466 -0.07808083413100311
1.15975 0.00548934900195115 -0.018205520013468396 -0.5691355697956165 0.14899813406090212 -0.5874168685176792 0.15378452203627105 -0.5486293522764842 -0.07694823535034727
1.162 -0.006950458637340852 -0.016704055767358568 -0.566635452311567 0.17300622297824597 -0.5809776769687729 0.17738537078010738 -0.5707995825022731 -0.07560681135221507
1.16425 -0.01880786928508532 -0.028444323986870263 -0.569718596042357 0.1991350264790788 -0.574754663728406 0.20089608003662443 -0.5870380045971001 -0.07281891069159936
1.1665 -0.0369199699269029 -0.04467779417586054 -0.5592528737260194 0.22068460902727852 -0.5545567049034176 0.2188315888921945 -0.5761771076110414 -0.06630774992944137
1.16875 -0.04603160788089302 -0.047496770447129584 -0.5533168756119975 0.2438605080060292 -0.5477442815652782 0.241404040168624 -0.5951201780165671 -0.06286056494365122
1.171 -0.05912088671937572 -0.05335723570935417 -0.5261961267948142 0.25683313209742115 -0.5478176267202666 0.26738643440618887 -0.5809396485085265 -0.055612955328733685
1.17325 -0.08829682432904878 -0.07052300919004852 -0.5079417766403954 0.272730202689539 -0.5231990120806946 0.2809226458999994 -0.5944552446398655 -0.05078580118013417
1.1755 -0.08952445693525576 -0.06360355613995454 -0.4913075392126644 0.28863637265864095 -0.514941598426004 0.30252154916245305 -0.6085232322576226 -0.045504239000288285
1.17775 -0.11928755839703252 -0.07547318655258767 -0.49027018311654436 0.31378645023302054 -0.4879619186989477 0.31230844700160276 -0.6194245041815369 -0.039518011177473895
1.18 -0.13538254058424343 -0.07614955155163673 -0.4721148810481623 0.3280563208614315 -0.4885553313858828 0.33947984689839084 -0.6075453560846976 -0.03191093261363732
1.18225 -0.14151458367869404 -0.07046304395681524 -0.46004730489387863 0.34611782168514993 -0.47897429406050834 0.36035757628045095 -0.6445960812960296 -0.026415522157462692
1.1845 -0.14871819447185144 -0.0651012884161664 -0.42978148719503806 0.3493661932274455 -0.43876454018113314 0.356668717417379 -0.6057918137943308 -0.017682148656440855
1.18675 -0.1761674399036444 -0.06712657403521907 -0.4315810202927398 0.37848025986487593 -0.4137401337305601 0.36283557481620327 -0.6115861858055331 -0.010499075165085877
1.189 -0.2094317506277625 -0.06850212394160474 -0.4132765528428708 0.39059125284975776 -0.41344584595223793 0.3907505136576879 -0.6390231334990415 -0.0031517757805167184
1.19125 -0.20992285744625083 -0.05780026941223562 -0.40716008603311915 0.4144823964994637 -0.3992813418022081 0.40646248054274237 -0.6341064717806043 0.004757723360388463
1.1935 -0.21596476068108994 -0.04866870499460831 -0.39288722139237886 0.43075112278851213 -0.3764960913704204 0.41278034467135055 -0.6315870488881546 0.012714063893832821
1.19575 -0.23150605015541406 -0.04091844301485491 -0.3867221505520301 0.4568045481557612 -0.3818219761386596 0.45101630054091363 -0.6510977203055346 0.02144547215631528
1.198 -0.2616109416576519 -0.03379897650470192 -0.3518362235529383 0.44812745406010535 -0.35895238739128343 0.45719011976490204 -0.641758956162556 0.029470693188944116
1.20025 -0.2496902232652559 -0.020575753849186872 -0.3292649658958319 0.4527986195513328 -0.32927411523348915 0.4528105360619148 -0.6491241337313599 0.03834669147224023
1.2025 -0.27894976233708485 -0.010073628825528647 -0.30963115967579014 0.4605765708083281 -0.32589849874732535 0.4847747302767864 -0.6512196806621485 0.047144606496842004
1.20475 -0.3206454791500763 0.0031837137980474934 -0.3022722973925719 0.4875426748702324 -0.30483664223244206 0.4916783940509529 -0.6479400710407189 0.05564288836914423
1.207 -0.31286664738515335 0.01750872795778849 -0.2890889595333651 0.5071745982281731 -0.28360202534017626 0.497547248856967 -0.6391785675870033 0.06361216622065427
1.20925 -0.3165072184794135 0.03235258967972899 -0.26194041193016143 0.5018126428517283 -0.2751370604213323 0.5270933253228655 -0.6527997226345196 0.0739795065705197
1.2115 -0.3242931261801031 0.04829793188249094 -0.24927940004865332 0.5240371710913923 -0.24385537384821018 0.5126343427946508 -0.6306088688999139 0.08026994013361549
1.21375 -0.3432676150784638 0.06740259667816294 -0.2281055620408091 0.5294142968373312 -0.23174270156179227 0.5378546275053073 -0.6572066521122755 0.09293845048305935
1.216 -0.33250840311342605 0.08137818709519058 -0.2136558248412444 0.5516577759337729 -0.2102739578046357 0.5429267335862671 -0.6353918842712629 0.0989274046674569
1.21825 -0.3498551149319747 0.10298657550907606 -0.19633877156335564 0.5694345922220584 -0.19110446225401656 0.554255276043632 -0.6482878308932319 0.1102945718662735
1.2205 -0.3677521381816502 0.12707472583513144 -0.17229698038073787 0.568308891069329 -0.17411975498416213 0.5743213593447317 -0.63309192398006 0.11694872586840012
1.22275 -0.35322576062920336 0.14079778933287976 -0.14996225780002254 0.5717758386505358 -0.15017572883289707 0.5725948571179036 -0.6297751816019652 0.12562274074670943
1.225 -0.35954785200317674 0.1632141467079432 -0.12748230622446602 0.5744196454168704 -0.128095255431062 0.5771798917605142 -0.6232342557330486 0.1336020388791155
1.22725 -0.36906583511764185 0.18896127245128994 -0.10798348653462114 0.5933089503763752 -0.10772931329194403 0.5919097791566353 -0.6221148792908567 0.14271790104993015
1.2295 -0.35841664881175367 0.20547784519422482 -0.08599218625528149 0.6041352678778362 -0.08199742813123383 0.5760726442568747 -0.6143509598060184 0.15025869858953475
1.23175 -0.3763639091255626 0.24028821677450285 -0.06155714041452019 0.5988037944290507 -0.06221015120885374 0.6051565300430216 -0.6184871262897005 0.16073272920171341
1.234 -0.36366083051663284 0.2575424385379768 -0.03813876363979911 0.6030206095671465 -0.03754645333988731 0.5936610668279194 -0.6132986409357578 0.16883598648978995
1.23625 -0.35970926415310156 0.28181188648477157 -0.014478745187083357 0.6152508920308112 -0.014488720897385891 0.6156719260104956 -0.5959197890322927 0.17328969050680812
1.2385 -0.3466626937780455 0.2999710473653576 0.010226199897142737 0.620396463346065 0.009977963348896297 0.6053534348148237 -0.5917923152406784 0.18130421281653575
1.24075 -0.34475177466577084 0.32930504172665415 0.03584482409669928 0.6293542334805808 0.036349908626816946 0.6382244222439807 -0.5927017294264156 0.19083364075913345
1.243 -0.3440229225858282 0.36290624649388187 0.059869926408081725 0.6106685265668162 0.061225299818771936 0.6244976421429664 -0.5537787131160331 0.18694624295544723
1.24525 -0.31444757858748096 0.3668720061392592 0.08648215164032386 0.6181353115944176 0.08624802113402005 0.6164631356770229 -0.5572084267907429 0.1967766826057922
1.2475 -0.3021426619690461 0.3909038996619067 0.11299255375011336 0.6183126184962846 0.1138459336087264 0.6229775213958859 -0.5516045964236573 0.20332654180472992
1.24975 -0.27894927633591254 0.40175257060136227 0.14172044457906433 0.6250115964194269 0.14058185511651838 0.6199873974731207 -0.5417290353954407 0.2079688683925733
1.252 -0.27221100267706566 0.43878776479690457 0.16842396002799317 0.6188789777356 0.1664876192288931 0.6117667260869786 -0.5230839713600791 0.20867431694512556
1.25425 -0.24369657951180923 0.44286752419572956 0.2000382724260533 0.6267285558642464 0.19450631233485033 0.6093975359785293 -0.4979659622277298 0.20596184953758484
1.2565 -0.22347476842090586 0.46232834415683655 0.22599899624289674 0.6139018048980345 0.22060043019848968 0.5992374432797489 -0.5076020437604567 0.21715393989735243
1.25875 -0.20589062436219044 0.49127122413636803 0.24951787321543292 0.595027236911376 0.2537383600094783 0.6050912262859538 -0.4817239123204594 0.2126225070122748
1.261 -0.17739912925887893 0.4969933094486089 0.282435364270542 0.5969114279958314 0.2891462682907901 0.6110956336767708 -0.48767547828221997 0.2214845789092966
1.26325 -0.14970565023857205 0.5049682494797659 0.3075870684404504 0.5803116795082446 0.30987016956784175 0.5846217207704817 -0.45855619903348865 0.21366988368584394
