!Created with skrf (http://scikit-rf.org).
# GHz S RI R 50.0 
!freq ReS11 ImS11 ReS21 ImS21 ReS12 ImS12 ReS22 ImS22
75.0 -0.503723180993 0.457844804761 0.61345710452 0.366781386817 0.61345710452 0.366781386817 -0.199584332837 0.648334696392
75.175 -0.495819040077 0.457076980761 0.621819395859 0.364031687136 0.621819395859 0.364031687136 -0.190798124123 0.644295561344
75.35 -0.487825384652 0.456157798105 0.630243009468 0.361095735086 0.630243009468 0.361095735086 -0.181988476534 0.640039089772
75.525 -0.479744512353 0.455081862056 0.638724152115 0.357968204999 0.638724152115 0.357968204999 -0.173160794358 0.635560385081
75.7 -0.471578977024 0.453843720061 0.647258737707 0.354643769501 0.647258737707 0.354643769501 -0.164320801392 0.630854618933
75.875 -0.463331599718 0.452437871658 0.65584237768 0.351117112931 0.65584237768 0.351117112931 -0.155474548195 0.625917048167
76.05 -0.455005479558 0.450858779381 0.664470371775 0.347382945816 0.664470371775 0.347382945816 -0.146628418678 0.620743032782
76.225 -0.446604004412 0.449100880706 0.673137699268 0.343436020432 0.673137699268 0.343436020432 -0.137789135918 0.615328054986
76.4 -0.438130861278 0.447158601061 0.68183901077 0.339271147457 0.68183901077 0.339271147457 -0.128963767113 0.60966773931
76.575 -0.429590046316 0.445026367932 0.690568620672 0.334883213736 0.690568620672 0.334883213736 -0.120159727551 0.603757873763
76.75 -0.420985874418 0.442698626092 0.699320500364 0.33026720115 0.699320500364 0.33026720115 -0.111384783479 0.597594432023
76.925 -0.412322988236 0.440169853968 0.708088272315 0.325418206604 0.708088272315 0.325418206604 -0.102647053764 0.591173596623
77.1 -0.403606366543 0.437434581151 0.716865205151 0.320331463095 0.716865205151 0.320331463095 -0.0939550102096 0.584491783086
77.275 -0.394841331844 0.434487407055 0.725644209831 0.315002361859 0.725644209831 0.315002361859 -0.085317476415 0.577545664967
77.45 -0.386033557091 0.431323020727 0.734417837061 0.309426475544 0.734417837061 0.309426475544 -0.0767436250395 0.570332199719
77.625 -0.377189071414 0.427936221772 0.743178276065 0.303599582378 0.743178276065 0.303599582378 -0.0682429733566 0.562848655312
77.8 -0.368314264717 0.424321942382 0.751917354838 0.297517691255 0.751917354838 0.297517691255 -0.0598253769639 0.555092637506
77.975 -0.359415891029 0.42047527042 0.760626542019 0.291177067686 0.760626542019 0.291177067686 -0.0515010215292 0.547062117666
78.15 -0.35050107047 0.416391473515 0.769296950506 0.284574260504 0.769296950506 0.284574260504 -0.0432804124522 0.538755460995
78.325 -0.341577289709 0.412066024091 0.77791934295 0.277706129239 0.77791934295 0.277706129239 -0.0351743623286 0.530171455035
78.5 -0.332652400772 0.40749462526 0.786484139229 0.270569872034 0.786484139229 0.270569872034 -0.0271939761108 0.521309338286
78.675 -0.323734618087 0.402673237479 0.794981426055 0.263163053971 0.794981426055 0.263163053971 -0.0193506338679 0.512168828764
78.85 -0.314832513619 0.397598105851 0.803400968791 0.255483635649 0.803400968791 0.255483635649 -0.0116559710617 0.5027501523
79.025 -0.305955009992 0.392265787966 0.811732225598 0.247530001853 0.811732225598 0.247530001853 -0.00412185626626 0.493054070379
79.2 -0.297111371468 0.386673182105 0.819964364008 0.239300990125 0.819964364008 0.239300990125 0.00323963372119 0.483081907299
79.375 -0.288311192693 0.380817555675 0.828086279978 0.230795919043 0.828086279978 0.230795919043 0.0104162414162 0.472835576401
79.55 -0.279564385096 0.374696573683 0.836086619509 0.222014615981 0.836086619509 0.222014615981 0.017395558843 0.462317605139
79.725 -0.270881160878 0.368308327059 0.843953802859 0.212957444127 0.843953802859 0.212957444127 0.0241650603838 0.451531158705
79.9 -0.262272014509 0.361651360622 0.851676051382 0.203625328527 0.851676051382 0.203625328527 0.0307121382468 0.440480061973
80.075 -0.253747701696 0.354724700465 0.859241416982 0.19401978088 0.859241416982 0.19401978088 0.0370241404934 0.429168819444
80.25 -0.245319215785 0.347527880529 0.86663781417 0.184142922838 0.86663781417 0.184142922838 0.0430884115342 0.417602632961
80.425 -0.236997761594 0.340060968112 0.873853054664 0.173997507537 0.873853054664 0.173997507537 0.0488923349741 0.405787416862
80.6 -0.228794726697 0.332324588069 0.880874884451 0.163586939093 0.880874884451 0.163586939093 0.0544233786537 0.393729810343
80.775 -0.220721650193 0.324319945438 0.887691023213 0.15291528977 0.887691023213 0.15291528977 0.0596691417026 0.381437186717
80.95 -0.212790189041 0.31604884622 0.894289205966 0.14198731458 0.894289205966 0.14198731458 0.0646174033866 0.36891765934
81.125 -0.205012082059 0.307513716069 0.900657226735 0.130808463017 0.900657226735 0.130808463017 0.0692561734978 0.356180083934
81.3 -0.197399111714 0.298717616603 0.906782984082 0.119384887699 0.906782984082 0.119384887699 0.073573744004 0.343234057094
81.475 -0.189963063861 0.289664259106 0.912654528224 0.107723449657 0.912654528224 0.107723449657 0.0775587416421 0.330089910768
81.65 -0.182715685632 0.28035801535 0.918260109496 0.0958317200647 0.918260109496 0.0958317200647 0.0812001811126 0.316758702529
81.825 -0.175668641687 0.270803925329 0.923588227847 0.0837179781945 0.923588227847 0.0837179781945 0.0844875185025 0.303252201501
82.0 -0.168833469088 0.261007701672 0.928627683051 0.071391205439 0.928627683051 0.071391205439 0.0874107045413 0.28958286982
82.175 -0.162221531063 0.250975730556 0.933367625285 0.0588610752479 0.933367625285 0.0588610752479 0.0899602372743 0.27576383956
82.35 -0.155843969981 0.240715068937 0.937797605687 0.046137938874 0.937797605687 0.046137938874 0.0921272137202 0.261808885106
82.525 -0.149711659853 0.230233437988 0.941907626523 0.0332328068593 0.941907626523 0.0332328068593 0.0939033800711 0.247732390975
82.7 -0.143835158724 0.2195392126 0.945688190536 0.0201573262289 0.945688190536 0.0201573262289 0.0952811799811 0.233549315158
82.875 -0.138224661312 0.208641406926 0.949130349076 0.00692375340793 0.949130349076 0.00692375340793 0.0962538004979 0.219275148104
83.05 -0.132889952278 0.197549655891 0.952225748573 -0.00645507708028 0.952225748573 -0.00645507708028 0.0968152151878 0.204925867497
83.225 -0.127840360523 0.186274192717 0.954966674955 -0.0199657880286 0.954966674955 -0.0199657880286 0.0969602240237 0.190517889054
83.4 -0.12308471489 0.174825822496 0.957346095567 -0.0335944989209 0.957346095567 -0.0335944989209 0.0966844896207 0.176068013601
83.575 -0.118631301681 0.163215891916 0.959357698221 -0.0473268690677 0.959357698221 -0.0473268690677 0.0959845694275 0.161593370753
83.75 -0.114487824352 0.151456255279 0.960995926957 -0.0611481442556 0.960995926957 -0.0611481442556 0.0948579435151 0.147111359541
83.925 -0.110661365776 0.139559236997 0.962256014193 -0.0750432066218 0.962256014193 -0.0750432066218 0.0933030376397 0.132639586403
84.1 -0.107158353419 0.127537590792 0.963134008895 -0.0889966274218 0.963134008895 -0.0889966274218 0.0913192412974 0.118195800968
84.275 -0.103984527756 0.115404455871 0.963626800501 -0.10299272232 0.963626800501 -0.10299272232 0.0889069205397 0.103797830118
84.45 -0.101144914235 0.10317331037 0.963732138327 -0.117015608802 0.963732138327 -0.117015608802 0.0860674253636 0.0894635108187
84.625 -0.098643799059 0.0908579224162 0.963448646245 -0.131049265272 0.963448646245 -0.131049265272 0.0828030915531 0.075210622243
84.8 -0.0964847090117 0.0784722991718 0.962775832473 -0.14507759138 0.962775832473 -0.14507759138 0.079117236899 0.0610568177288
84.975 -0.0946703955204 0.0660306342483 0.96171409436 -0.159084469112 0.96171409436 -0.159084469112 0.0750141517879 0.0470195571073
85.15 -0.0932028231059 0.0535472539124 0.960264718103 -0.173053824151 0.960264718103 -0.173053824151 0.0704990842095 0.0331160399487
85.325 -0.0920831623166 0.0410365625049 0.958429873394 -0.186969687011 0.958429873394 -0.186969687011 0.0655782192918 0.0193631402592
85.5 -0.0913117872005 0.0285129875119 0.956212603034 -0.200816253483 0.956212603034 -0.200816253483 0.0602586535304 0.00577734314916
85.675 -0.090888277322 0.0159909247248 0.953616807627 -0.214577943878 0.953616807627 -0.214577943878 0.054548363936 -0.00762531602904
85.85 -0.0908114242773 0.00348468392697 0.950647225492 -0.228239460638 0.950647225492 -0.228239460638 0.0484561723759 -0.0208293096052
86.025 -0.0910792426195 -0.00899156446831 0.947309408002 -0.241785843844 0.947309408002 -0.241785843844 0.0419917054344 -0.0338196721432
86.2 -0.0916889850572 -0.0214238414161 0.943609690595 -0.255202524222 0.943609690595 -0.255202524222 0.0351653501592 -0.0465820512268
86.375 -0.0926371617467 -0.033798409484 0.939555159745 -0.268475373258 0.939555159745 -0.268475373258 0.0279882061004 -0.0591027541322
86.55 -0.0939195634593 -0.0461018209755 0.935153616214 -0.281590750079 0.935153616214 -0.281590750079 0.0204720340805 -0.0713687900866
86.725 -0.0955312883691 -0.058320963596 0.930413534958 -0.294535544787 0.930413534958 -0.294535544787 0.012629202157 -0.0833679078673
86.9 -0.0974667721741 -0.0704431033592 0.925344022052 -0.30729721799 0.925344022052 -0.30729721799 0.00447262926106 -0.0950886285476
87.075 -0.0997198212368 -0.0824559244662 0.919954769056 -0.319863836319 0.919954769056 -0.319863836319 -0.00398427299612 -0.106520273252
87.25 -0.102283648409 -0.0943475659288 0.914256005232 -0.332224103751 0.914256005232 -0.332224103751 -0.0127276598507 -0.11765298584
87.425 -0.10515091119 -0.106106654752 0.908258448046 -0.344367388628 0.908258448046 -0.344367388628 -0.0217433137516 -0.128477750483
87.6 -0.108313751843 -0.117722335525 0.901973252388 -0.356283746295 0.901973252388 -0.356283746295 -0.0310167050767 -0.138986404179
87.775 -0.111763839124 -0.129184296327 0.895411958934 -0.367963937336 0.895411958934 -0.367963937336 -0.0405330527271 -0.149171644249
87.95 -0.115492411214 -0.140482790866 0.888586442074 -0.379399441427 0.888586442074 -0.379399441427 -0.0502773841461 -0.159027030975
88.125 -0.119490319523 -0.151608656851 0.881508857808 -0.390582466865 0.881508857808 -0.390582466865 -0.060234594335 -0.168546985512
88.3 -0.123748072982 -0.162553330596 0.874191592014 -0.401505955886 0.874191592014 -0.401505955886 -0.0703895034675 -0.177726783306
88.475 -0.128255882477 -0.173308857911 0.866647209431 -0.412163585903 0.866647209431 -0.412163585903 -0.0807269127354 -0.186562543243
88.65 -0.133003705102 -0.183867901382 0.858888403724 -0.422549766844 0.858888403724 -0.422549766844 -0.0912316580949 -0.195051212804
88.825 -0.137981287909 -0.194223744123 0.850927948927 -0.432659634784 0.850927948927 -0.432659634784 -0.101888661622 -0.203190549523
89.0 -0.143178210868 -0.204370290186 0.84277865255 -0.442489042108 0.84277865255 -0.442489042108 -0.112682980218 -0.21097909906
89.175 -0.148583928764 -0.214302061758 0.834453310617 -0.452034544443 0.834453310617 -0.452034544443 -0.123599851463 -0.218416170214
89.35 -0.154187811792 -0.224014193362 0.825964664823 -0.461293384629 0.825964664823 -0.461293384629 -0.134624736421 -0.225501807231
89.525 -0.159979184644 -0.233502423252 0.817325362032 -0.470263473996 0.817325362032 -0.470263473996 -0.145743359283 -0.232236759723
89.7 -0.165947363882 -0.242763082222 0.808547916231 -0.478943371239 0.808547916231 -0.478943371239 -0.156941743741 -0.238622450569
89.875 -0.172081693458 -0.251793080067 0.799644673085 -0.487332259166 0.799644673085 -0.487332259166 -0.168206246028 -0.244660942122
90.05 -0.178371578231 -0.260589889909 0.790627777176 -0.495429919618 0.790627777176 -0.495429919618 -0.179523584606 -0.25035490106
90.225 -0.184806515397 -0.269151530653 0.781509141963 -0.503236706832 0.781509141963 -0.503236706832 -0.190880866499 -0.255707562199
90.4 -0.191376123729 -0.277476547782 0.772300422526 -0.510753519533 0.772300422526 -0.510753519533 -0.202265610316 -0.260722691584
90.575 -0.198070170601 -0.285563992746 0.763012991059 -0.51798177202 0.763012991059 -0.51798177202 -0.213665766016 -0.265404549142
90.75 -0.204878596744 -0.293413401166 0.753657915122 -0.524923364495 0.753657915122 -0.524923364495 -0.225069731506 -0.269757851175
90.925 -0.211791538737 -0.301024770071 0.744245938582 -0.531580652898 0.744245938582 -0.531580652898 -0.236466366185 -0.273787732948
91.1 -0.218799349244 -0.308398534391 0.734787465197 -0.537956418456 0.734787465197 -0.537956418456 -0.247845001538 -0.277499711607
91.275 -0.225892615024 -0.315535542901 0.725292544749 -0.544053837169 0.725292544749 -0.544053837169 -0.25919544895 -0.280899649635
91.45 -0.233062172769 -0.32243703381 0.715770861637 -0.549876449439 0.715770861637 -0.549876449439 -0.270508004864 -0.283993719045
91.625 -0.240299122816 -0.329104610168 0.706231725819 -0.555428129994 0.706231725819 -0.555428129994 -0.281773453459 -0.286788366469
91.8 -0.247594840822 -0.335540215264 0.696684065982 -0.560713058303 0.696684065982 -0.560713058303 -0.292983067018 -0.289290279298
91.975 -0.254940987477 -0.34174610816 0.687136424817 -0.5657356896 0.687136424817 -0.5657356896 -0.304128604144 -0.291506353003
92.15 -0.262329516342 -0.347724839494 0.677596956264 -0.570500726651 0.677596956264 -0.570500726651 -0.315202306019 -0.29344365973
92.325 -0.269752679927 -0.353479227682 0.668073424591 -0.575013092387 0.668073424591 -0.575013092387 -0.32619689086 -0.295109418265
92.5 -0.277203034097 -0.359012335629 0.658573205164 -0.579277903466 0.658573205164 -0.579277903466 -0.337105546768 -0.296510965441
92.675 -0.284673440914 -0.364327448023 0.649103286778 -0.583300444878 0.649103286778 -0.583300444878 -0.347921923115 -0.297655729027
92.85 -0.292157070041 -0.369428049331 0.6396702754 -0.587086145631 0.6396702754 -0.587086145631 -0.358640120661 -0.298551202146
93.025 -0.299647398794 -0.374317802524 0.630280399196 -0.590640555566 0.630280399196 -0.590640555566 -0.369254680538 -0.299204919229
93.2 -0.307138210974 -0.379000528621 0.620939514699 -0.593969323358 0.620939514699 -0.593969323358 -0.379760572272 -0.299624433526
93.375 -0.314623594571 -0.383480187079 0.611653113999 -0.597078175705 0.611653113999 -0.597078175705 -0.390153180983 -0.299817296158
93.55 -0.322097938458 -0.387760857073 0.602426332826 -0.599972897724 0.602426332826 -0.599972897724 -0.400428293897 -0.299791036705
93.725 -0.329555928172 -0.391846719685 0.593263959404 -0.602659314565 0.593263959404 -0.602659314565 -0.410582086308 -0.299553145291
93.9 -0.336992540884 -0.395742041027 0.584170443968 -0.605143274228 0.584170443968 -0.605143274228 -0.420611107108 -0.299111056144
94.075 -0.344403039653 -0.399451156293 0.575149908837 -0.60743063157 0.575149908837 -0.60743063157 -0.430512263994 -0.29847213259
94.25 -0.351782967061 -0.402978454762 0.566206158938 -0.609527233488 0.566206158938 -0.609527233488 -0.440282808466 -0.297643653422
94.425 -0.359128138301 -0.406328365724 0.557342692696 -0.611438905244 0.557342692696 -0.611438905244 -0.4499203207 -0.296632800616
94.6 -0.366434633824 -0.409505345329 0.548562713193 -0.613171437904 0.548562713193 -0.613171437904 -0.459422694389 -0.295446648313
94.775 -0.373698791596 -0.41251386435 0.539869139533 -0.614730576857 0.539869139533 -0.614730576857 -0.468788121628 -0.294092153027
94.95 -0.380917199048 -0.415358396827 0.531264618318 -0.61612201137 0.531264618318 -0.61612201137 -0.478015077912 -0.292576145016
95.125 -0.388086684795 -0.418043409568 0.522751535187 -0.61735136514 0.522751535187 -0.61735136514 -0.487102307314 -0.290905320748
95.3 -0.395204310164 -0.420573352496 0.514332026352 -0.618424187802 0.514332026352 -0.618424187802 -0.496048807895 -0.289086236403
95.475 -0.402267360601 -0.422952649793 0.506007990072 -0.619345947338 0.506007990072 -0.619345947338 -0.504853817385 -0.287125302352
95.65 -0.409273337009 -0.425185691821 0.497781098028 -0.620122023353 0.497781098028 -0.620122023353 -0.513516799194 -0.285028778545
95.825 -0.416219947053 -0.427276827785 0.489652806541 -0.62075770116 0.489652806541 -0.62075770116 -0.522037428775 -0.282802770758
96.0 -0.423105096482 -0.429230359099 0.481624367616 -0.621258166634 0.481624367616 -0.621258166634 -0.530415580367 -0.280453227616
96.175 -0.429926880505 -0.431050533432 0.47369683976 -0.621628501785 0.47369683976 -0.621628501785 -0.538651314157 -0.277985938361
96.35 -0.436683575251 -0.432741539379 0.465871098559 -0.621873681006 0.465871098559 -0.621873681006 -0.546744863859 -0.275406531293
96.525 -0.443373629336 -0.434307501751 0.458147846984 -0.621998567946 0.458147846984 -0.621998567946 -0.55469662474 -0.272720472824
96.7 -0.449995655585 -0.435752477412 0.450527625411 -0.622007912974 0.450527625411 -0.622007912974 -0.562507142102 -0.269933067107
96.875 -0.4565484229 -0.437080451669 0.44301082134 -0.621906351173 0.44301082134 -0.621906351173 -0.57017710022 -0.267049456184
97.05 -0.463030848318 -0.438295335143 0.435597678791 -0.621698400852 0.435597678791 -0.621698400852 -0.577707311744 -0.264074620591
97.225 -0.469441989263 -0.439400961121 0.428288307379 -0.621388462499 0.428288307379 -0.621388462499 -0.585098707567 -0.261013380403
97.4 -0.475781036008 -0.44040108333 0.421082691056 -0.620980818167 0.421082691056 -0.620980818167 -0.592352327157 -0.257870396648
97.575 -0.482047304358 -0.441299374119 0.413980696516 -0.620479631248 0.413980696516 -0.620479631248 -0.599469309344 -0.254650173065
97.75 -0.488240228561 -0.442099423016 0.406982081264 -0.61988894659 0.406982081264 -0.61988894659 -0.606450883563 -0.251357058161
97.925 -0.494359354454 -0.442804735624 0.400086501337 -0.61921269094 0.400086501337 -0.61921269094 -0.613298361541 -0.247995247542
98.1 -0.500404332852 -0.443418732836 0.393293518704 -0.618454673666 0.393293518704 -0.618454673666 -0.620013129419 -0.244568786463
98.275 -0.506374913175 -0.443944750343 0.386602608314 -0.617618587751 0.386602608314 -0.617618587751 -0.6265966403 -0.241081572594
98.45 -0.512270937324 -0.444386038401 0.380013164829 -0.616708010999 0.380013164829 -0.616708010999 -0.633050407212 -0.237537358948
98.625 -0.5180923338 -0.444745761846 0.373524509024 -0.615726407466 0.373524509024 -0.615726407466 -0.63937599647 -0.233939756961
98.8 -0.523839112059 -0.445027000328 0.367135893876 -0.614677129054 0.367135893876 -0.614677129054 -0.645575021428 -0.230292239692
98.975 -0.52951135712 -0.445232748739 0.360846510341 -0.61356341728 0.360846510341 -0.61356341728 -0.651649136607 -0.226598145119
99.15 -0.5351092244 -0.445365917825 0.354655492826 -0.61238840517 0.354655492826 -0.61238840517 -0.657600032186 -0.222860679521
99.325 -0.540632934789 -0.445429334956 0.348561924373 -0.611155119278 0.348561924373 -0.611155119278 -0.663429428834 -0.219082920909
99.5 -0.546082769949 -0.44542574504 0.342564841557 -0.609866481806 0.342564841557 -0.609866481806 -0.669139072882 -0.215267822507
99.675 -0.551459067845 -0.445357811562 0.336663239111 -0.608525312807 0.336663239111 -0.608525312807 -0.674730731811 -0.21141821626
99.85 -0.556762218483 -0.445228117736 0.330856074284 -0.607134332458 0.330856074284 -0.607134332458 -0.680206190047 -0.207536816345
100.025 -0.561992659875 -0.445039167756 0.325142270943 -0.605696163388 0.325142270943 -0.605696163388 -0.685567245043 -0.203626222694
100.2 -0.567150874195 -0.444793388133 0.319520723436 -0.604213333051 0.319520723436 -0.604213333051 -0.690815703644 -0.199688924501
100.375 -0.572237384146 -0.444493129095 0.313990300215 -0.602688276127 0.313990300215 -0.602688276127 -0.695953378708 -0.195727303698
100.55 -0.577252749518 -0.444140666066 0.308549847232 -0.601123336949 0.308549847232 -0.601123336949 -0.700982085985 -0.191743638418
100.725 -0.582197563925 -0.443738201178 0.303198191125 -0.599520771937 0.303198191125 -0.599520771937 -0.70590364123 -0.187740106403
100.9 -0.587072451734 -0.443287864843 0.297934142196 -0.597882752037 0.297934142196 -0.597882752037 -0.710719857539 -0.183718788376
101.075 -0.591878065157 -0.442791717343 0.292756497191 -0.596211365158 0.292756497191 -0.596211365158 -0.715432542899 -0.179681671358
101.25 -0.596615081509 -0.442251750456 0.287664041898 -0.59450861859 0.287664041898 -0.59450861859 -0.720043497942 -0.175630651925
